
T1FB0 000:069 SEGGER J-Link V4.68a Log File (0001ms, 0067ms total)
T1FB0 000:069 DLL Compiled: Apr 12 2013 13:26:50 (0001ms, 0067ms total)
T1FB0 000:069 Logging started @ 2016-05-10 09:22 (0001ms, 0067ms total)
T1FB0 000:070 JLINK_SetWarnOutHandler(...) (0000ms, 0067ms total)
T1FB0 000:070 JLINK_OpenEx(...)
Firmware: J-Link ARM V8 compiled Nov 14 2012 22:34:52
Hardware: V8.00
S/N: 304427361
Feature(s): RDI,FlashDL,FlashBP,JFlash,GDBFULL  returns O.K. (0035ms, 0102ms total)
T1FB0 000:105 JLINK_SetErrorOutHandler(...) (0000ms, 0102ms total)
T1FB0 000:105 JLINK_ExecCommand("ProjectFile = "E:\File Create\STM32\01、自己配置成功的案例\SD_SDIO读写 成功  带DMA SDIO有中断 DMA无中断有标志位\Project\RVMDK( uv4)\JLinkSettings.ini"", ...)  returns 0x00 (0000ms, 0102ms total)
T1FB0 000:116 JLINK_ExecCommand("Device = STM32F103VE", ...)
                JLINK_AddMirrorAreaEx(Addr = 0x00000000, Size = 0x00000000) (0000ms, 0000ms total)
              Device "STM32F103VE" selected (512 KB flash, 64 KB RAM).  returns 0x00 (0011ms, 0113ms total)
T1FB0 000:127 JLINK_ExecCommand("DisableConnectionTimeout", ...)  returns 0x00 (0000ms, 0113ms total)
T1FB0 000:127 JLINK_GetHardwareVersion()  returns 0x13880 (0000ms, 0113ms total)
T1FB0 000:127 JLINK_GetDLLVersion()  returns 46801 (0000ms, 0113ms total)
T1FB0 000:127 JLINK_GetFirmwareString(...) (0000ms, 0113ms total)
T1FB0 000:149 JLINK_GetDLLVersion()  returns 46801 (0000ms, 0113ms total)
T1FB0 000:149 JLINK_GetCompileDateTime() (0000ms, 0113ms total)
T1FB0 000:154 JLINK_GetFirmwareString(...) (0000ms, 0113ms total)
T1FB0 000:159 JLINK_GetHardwareVersion()  returns 0x13880 (0000ms, 0113ms total)
T1FB0 000:172 JLINK_TIF_Select(JLINKARM_TIF_JTAG)  returns 0x00 (0000ms, 0113ms total)
T1FB0 000:172 JLINK_SetSpeed(2000) (0000ms, 0113ms total)
T1FB0 000:172 JLINK_GetIdData(...) >0x2F8 JTAG>TotalIRLen = 9, IRPrint = 0x0011 >0x30 JTAG> >0x210 JTAG> >0x40 JTAG> >0x40 JTAG> >0x40 JTAG> >0x30 JTAG> >0x40 JTAG> >0x40 JTAG> >0x40 JTAG> >0x40 JTAG> >0x40 JTAG> >0x40 JTAG> >0x40 JTAG> >0x40 JTAG> >0x40 JTAG> >0x40 JTAG> >0x2F8 JTAG>TotalIRLen = 9, IRPrint = 0x0011 >0x30 JTAG> >0x210 JTAG> >0x80 JTAG> >0x40 JTAG> >0x40 JTAG> >0x50 JTAG> >0x40 JTAG> >0x40 JTAG> >0x40 JTAG> >0x50 JTAG> >0x40 JTAG> >0x40 JTAG> >0x40 JTAG> >0x30 JTAG> >0x40 JTAG>
 >0x50 JTAG> >0x40 JTAG> >0x38 JTAG> >0x80 JTAG> >0x40 JTAG> >0x40 JTAG> >0x50 JTAG> >0x40 JTAG> >0x40 JTAG> >0x40 JTAG> >0x50 JTAG> >0x40 JTAG> >0x40 JTAG> >0x30 JTAG> >0x40 JTAG> >0x40 JTAG> >0x40 JTAG> >0x40 JTAG> >0x40 JTAG> >0x50 JTAG> >0x40 JTAG> >0x80 JTAG> >0x40 JTAG> >0x30 JTAG> >0x40 JTAG> >0x40 JTAG> >0x40 JTAG> >0x40 JTAG> >0x40 JTAG> >0x50 JTAG> >0x40 JTAG> >0x80 JTAG> >0x40 JTAG> >0x30 JTAG> >0x40 JTAG> >0x50 JTAG> >0x40 JTAG> >0x40 JTAG> >0x40 JTAG> >0x30 JTAG> >0x40 JTAG> >0x50 JTAG>
 >0x40 JTAG>Found Cortex-M3 r1p1, Little endian. >0x50 JTAG> >0x50 JTAG> >0x40 JTAG> >0x40 JTAG> >0x30 JTAG> >0x30 JTAG> >0x50 JTAG> >0x40 JTAG> >0x80 JTAG> >0x40 JTAG> >0x30 JTAG> >0x40 JTAG> >0x50 JTAG> >0x40 JTAG> >0x40 JTAG> >0x40 JTAG> >0x30 JTAG> >0x30 JTAG> >0x50 JTAG> >0x40 JTAG> >0x80 JTAG> >0x40 JTAG> >0x30 JTAG> >0x40 JTAG> >0x50 JTAG> >0x40 JTAG>TPIU fitted. >0x40 JTAG> >0x40 JTAG> >0x30 JTAG> >0x40 JTAG> >0x50 JTAG> >0x40 JTAG>ETM fitted. >0x40 JTAG> >0x40 JTAG> >0x30 JTAG> >0x40 JTAG>
 >0x50 JTAG> >0x40 JTAG> >0x40 JTAG> >0x40 JTAG> >0x30 JTAG> >0x40 JTAG> >0x50 JTAG> >0x40 JTAG>FPUnit: 6 code (BP) slots and 2 literal slots >0x40 JTAG> >0x40 JTAG> >0x30 JTAG> >0x40 JTAG> >0x50 JTAG> >0x40 JTAG> >0x40 JTAG> >0x40 JTAG> >0x30 JTAG> >0x30 JTAG> >0x50 JTAG> >0x40 JTAG> >0x80 JTAG> >0x40 JTAG> >0x30 JTAG> >0x40 JTAG> >0x50 JTAG> >0x40 JTAG> >0x40 JTAG> >0x40 JTAG> >0x30 JTAG> >0x30 JTAG> >0x50 JTAG> >0x40 JTAG> ScanLen=9 NumDevices=2 aId[0]=0x3BA00477 aIrRead[0]=0 aScanLen[0]=0
 aScanRead[0]=0 (0183ms, 0296ms total)
T1FB0 000:355 JLINK_JTAG_GetDeviceID(DeviceIndex = 0)  returns 0x3BA00477 (0000ms, 0296ms total)
T1FB0 000:355 JLINK_JTAG_GetDeviceInfo(DeviceIndex = 0)  returns 0x00 (0000ms, 0296ms total)
T1FB0 000:355 JLINK_JTAG_GetDeviceID(DeviceIndex = 1)  returns 0x6414041 (0000ms, 0296ms total)
T1FB0 000:355 JLINK_JTAG_GetDeviceInfo(DeviceIndex = 1)  returns 0x00 (0000ms, 0296ms total)
T1FB0 000:355 JLINK_GetDeviceFamily()  returns 3 (0000ms, 0296ms total)
T1FB0 000:359 JLINK_ReadMem (0xE00FFFF0, 0x0010 Bytes, ...) -- CPU is running -- CPU_ReadMem(16 bytes @ 0xE00FFFF0) -- Data:  0D 00 00 00 10 00 00 00 05 00 00 00 B1 00 00 00  returns 0x00 (0004ms, 0300ms total)
T1FB0 000:363 JLINK_ReadMem (0xE00FFFD0, 0x0020 Bytes, ...) -- CPU is running -- CPU_ReadMem(32 bytes @ 0xE00FFFD0) -- Data:  00 00 00 00 00 00 00 00 00 00 00 00 00 00 00 00 ...  returns 0x00 (0001ms, 0301ms total)
T1FB0 000:364 JLINK_ReadMem (0xE00FF000, 0x0018 Bytes, ...) -- CPU is running -- CPU_ReadMem(24 bytes @ 0xE00FF000) -- Data:  03 F0 F0 FF 03 20 F0 FF 03 30 F0 FF 03 10 F0 FF ...  returns 0x00 (0003ms, 0304ms total)
T1FB0 000:367 JLINK_ReadMemU32(0xE000ED00, 0x0001 Items, ...) -- CPU is running -- CPU_ReadMem(4 bytes @ 0xE000ED00) -- Data:  31 C2 1F 41  returns 0x01 (0001ms, 0305ms total)
T1FB0 000:368 JLINK_SetResetType(JLINKARM_RESET_TYPE_NORMAL)  returns JLINKARM_RESET_TYPE_NORMAL (0000ms, 0305ms total)
T1FB0 000:368 JLINK_Reset() >0x88 JTAG> >0x80 JTAG> >0x40 JTAG> >0x40 JTAG> >0x50 JTAG> >0x40 JTAG> >0x40 JTAG> >0x40 JTAG> >0x50 JTAG> >0x40 JTAG> >0x40 JTAG> >0x30 JTAG> >0x40 JTAG> >0x40 JTAG> >0x40 JTAG> >0x40 JTAG> >0x40 JTAG> >0x50 JTAG> >0x40 JTAG> >0x80 JTAG> >0x40 JTAG> >0x30 JTAG> >0x40 JTAG> >0x40 JTAG> >0x40 JTAG> >0x40 JTAG> >0x40 JTAG> >0x50 JTAG> >0x40 JTAG> >0x80 JTAG> >0x40 JTAG> >0x30 JTAG> >0x40 JTAG> >0x50 JTAG> >0x40 JTAG> >0x40 JTAG> >0x40 JTAG> >0x30 JTAG> >0x40 JTAG> >0x50 JTAG>
 >0x40 JTAG>Found Cortex-M3 r1p1, Little endian. >0x50 JTAG> >0x50 JTAG> >0x40 JTAG> >0x40 JTAG> >0x30 JTAG> >0x30 JTAG> >0x50 JTAG> >0x40 JTAG> >0x80 JTAG> >0x40 JTAG> >0x30 JTAG> >0x40 JTAG> >0x50 JTAG> >0x40 JTAG> >0x40 JTAG> >0x40 JTAG> >0x30 JTAG> >0x40 JTAG> >0x50 JTAG> >0x40 JTAG>TPIU fitted. >0x40 JTAG> >0x40 JTAG> >0x30 JTAG> >0x40 JTAG> >0x50 JTAG> >0x40 JTAG>ETM fitted. >0x40 JTAG> >0x40 JTAG> >0x30 JTAG> >0x40 JTAG> >0x50 JTAG> >0x40 JTAG> >0x40 JTAG> >0x40 JTAG> >0x30 JTAG> >0x40 JTAG>
 >0x50 JTAG> >0x40 JTAG>FPUnit: 6 code (BP) slots and 2 literal slots >0x40 JTAG> >0x40 JTAG> >0x30 JTAG> >0x40 JTAG> >0x50 JTAG> >0x40 JTAG> >0x40 JTAG> >0x40 JTAG> >0x30 JTAG> >0x40 JTAG> >0x50 JTAG> >0x40 JTAG> >0x40 JTAG> >0x40 JTAG> >0x30 JTAG> >0x30 JTAG> >0x50 JTAG> >0x40 JTAG> -- CPU is running -- CPU_WriteMem(4 bytes @ 0xE000EDF0) -- CPU is running -- CPU_WriteMem(4 bytes @ 0xE000EDFC) -- CPU is running -- CPU_WriteMem(4 bytes @ 0xE000ED0C) -- CPU is running -- CPU_ReadMem(4 bytes @ 0xE000EDF0)
 -- CPU is running -- CPU_ReadMem(4 bytes @ 0xE000EDF0) -- CPU is running -- CPU_WriteMem(4 bytes @ 0xE000EDF0) -- CPU is running -- CPU_WriteMem(4 bytes @ 0xE000EDFC) -- CPU is running -- CPU_ReadMem(4 bytes @ 0xE000EDF0) >0xD0 JTAG> >0x40 JTAG> >0x30 JTAG> >0x40 JTAG> >0x50 JTAG> >0x40 JTAG> -- CPU_WriteMem(4 bytes @ 0xE000EDFC) -- CPU_WriteMem(4 bytes @ 0xE0001028) -- CPU_WriteMem(4 bytes @ 0xE0001038) -- CPU_WriteMem(4 bytes @ 0xE0001048) -- CPU_WriteMem(4 bytes @ 0xE0001058)
 -- CPU_WriteMem(4 bytes @ 0xE0002000) (0157ms, 0462ms total)
T1FB0 000:525 JLINK_Halt()  returns 0x00 (0000ms, 0462ms total)
T1FB0 000:525 JLINK_IsHalted()  returns TRUE (0000ms, 0462ms total)
T1FB0 000:525 JLINK_ReadMemU32(0xE000EDF0, 0x0001 Items, ...) -- CPU_ReadMem(4 bytes @ 0xE000EDF0) -- Data:  03 00 03 00  returns 0x01 (0001ms, 0463ms total)
T1FB0 000:526 JLINK_WriteU32(0xE000EDF0, 0xA05F0003) -- CPU_WriteMem(4 bytes @ 0xE000EDF0)  returns 0x00 (0001ms, 0464ms total)
T1FB0 000:527 JLINK_WriteU32(0xE000EDFC, 0x01000000) -- CPU_WriteMem(4 bytes @ 0xE000EDFC)  returns 0x00 (0001ms, 0465ms total)
T1FB0 000:541 JLINK_GetHWStatus(...)  returns 0x00 (0002ms, 0467ms total)
T1FB0 000:555 JLINK_GetNumBPUnits(Type = 0xFFFFFF00)  returns 0x06 (0000ms, 0467ms total)
T1FB0 000:555 JLINK_GetNumBPUnits(Type = 0xF0)  returns 0x2000 (0000ms, 0467ms total)
T1FB0 000:555 JLINK_GetNumWPUnits()  returns 0x04 (0000ms, 0467ms total)
T1FB0 000:574 JLINK_GetSpeed()  returns 0x7D0 (0000ms, 0467ms total)
T1FB0 000:579 JLINK_ReadMemU32(0xE000E004, 0x0001 Items, ...) -- CPU_ReadMem(4 bytes @ 0xE000E004) -- Data:  01 00 00 00  returns 0x01 (0002ms, 0469ms total)
T1FB0 000:581 JLINK_ReadMemU32(0xE000E004, 0x0001 Items, ...) -- CPU_ReadMem(4 bytes @ 0xE000E004) -- Data:  01 00 00 00  returns 0x01 (0001ms, 0470ms total)
T1FB0 000:582 JLINK_WriteMem(0xE0001000, 0x001C Bytes, ...) -- Data:  01 00 00 00 00 00 00 00 00 00 00 00 00 00 00 00 ... -- CPU_WriteMem(28 bytes @ 0xE0001000)  returns 0x1C (0001ms, 0471ms total)
T1FB0 000:583 JLINK_ReadMem (0xE0001000, 0x001C Bytes, ...) -- CPU_ReadMem(28 bytes @ 0xE0001000) -- Data:  01 00 00 40 00 00 00 00 00 00 00 00 00 00 00 00 ...  returns 0x00 (0001ms, 0472ms total)
T1FB0 000:584 JLINK_Halt()  returns 0x00 (0000ms, 0472ms total)
T1FB0 000:584 JLINK_IsHalted()  returns TRUE (0000ms, 0472ms total)
T1FB0 000:585 JLINK_WriteMem(0x20000000, 0x0164 Bytes, ...) -- Data:  00 BE 0A E0 0D 78 2D 06 68 40 08 24 40 00 00 D3 ... -- CPU_WriteMem(356 bytes @ 0x20000000)  returns 0x164 (0004ms, 0476ms total)
T1FB0 000:589 JLINK_WriteReg(R0, 0x08000000)  returns 0x00 (0000ms, 0476ms total)
T1FB0 000:589 JLINK_WriteReg(R1, 0x007A1200)  returns 0x00 (0000ms, 0476ms total)
T1FB0 000:589 JLINK_WriteReg(R2, 0x00000001)  returns 0x00 (0000ms, 0476ms total)
T1FB0 000:589 JLINK_WriteReg(R3, 0x00000000)  returns 0x00 (0000ms, 0476ms total)
T1FB0 000:589 JLINK_WriteReg(R4, 0x00000000)  returns 0x00 (0000ms, 0476ms total)
T1FB0 000:589 JLINK_WriteReg(R5, 0x00000000)  returns 0x00 (0000ms, 0476ms total)
T1FB0 000:589 JLINK_WriteReg(R6, 0x00000000)  returns 0x00 (0000ms, 0476ms total)
T1FB0 000:589 JLINK_WriteReg(R7, 0x00000000)  returns 0x00 (0000ms, 0476ms total)
T1FB0 000:589 JLINK_WriteReg(R8, 0x00000000)  returns 0x00 (0000ms, 0476ms total)
T1FB0 000:589 JLINK_WriteReg(R9, 0x20000160)  returns 0x00 (0000ms, 0476ms total)
T1FB0 000:589 JLINK_WriteReg(R10, 0x00000000)  returns 0x00 (0000ms, 0476ms total)
T1FB0 000:589 JLINK_WriteReg(R11, 0x00000000)  returns 0x00 (0000ms, 0476ms total)
T1FB0 000:589 JLINK_WriteReg(R12, 0x00000000)  returns 0x00 (0000ms, 0476ms total)
T1FB0 000:589 JLINK_WriteReg(R13, 0x20000800)  returns 0x00 (0000ms, 0476ms total)
T1FB0 000:589 JLINK_WriteReg(R14, 0x20000001)  returns 0x00 (0000ms, 0476ms total)
T1FB0 000:589 JLINK_WriteReg(R15, 0x20000038)  returns 0x00 (0000ms, 0476ms total)
T1FB0 000:589 JLINK_WriteReg(XPSR, 0x01000000)  returns 0x00 (0001ms, 0477ms total)
T1FB0 000:590 JLINK_WriteReg(MSP, 0x20000800)  returns 0x00 (0000ms, 0477ms total)
T1FB0 000:590 JLINK_WriteReg(PSP, 0x20000800)  returns 0x00 (0000ms, 0477ms total)
T1FB0 000:590 JLINK_WriteReg(CFBP, 0x00000000)  returns 0x00 (0000ms, 0477ms total)
T1FB0 000:590 JLINK_SetBPEx(Addr = 0x20000000, Type = 0xFFFFFFF2) -- CPU_ReadMem(2 bytes @ 0x20000000)  returns 0x00000001 (0001ms, 0478ms total)
T1FB0 000:591 JLINK_Go() -- CPU_WriteMem(2 bytes @ 0x20000000) -- CPU_WriteMem(4 bytes @ 0xE0002008) -- CPU_WriteMem(4 bytes @ 0xE000200C) -- CPU_WriteMem(4 bytes @ 0xE0002010) -- CPU_WriteMem(4 bytes @ 0xE0002014) -- CPU_WriteMem(4 bytes @ 0xE0002018) -- CPU_WriteMem(4 bytes @ 0xE000201C) (0011ms, 0489ms total)
T1FB0 000:602 JLINK_IsHalted() -- CPU_ReadMem(2 bytes @ 0x20000000)  returns TRUE (0006ms, 0495ms total)
T1FB0 000:608 JLINK_ReadReg(R15)  returns 0x20000000 (0000ms, 0489ms total)
T1FB0 000:608 JLINK_ClrBPEx(BPHandle = 0x00000001)  returns 0x00 (0000ms, 0489ms total)
T1FB0 000:608 JLINK_ReadReg(R0)  returns 0x00000000 (0000ms, 0489ms total)
T1FB0 000:608 JLINK_WriteReg(R0, 0x08000000)  returns 0x00 (0000ms, 0489ms total)
T1FB0 000:608 JLINK_WriteReg(R1, 0x007A1200)  returns 0x00 (0000ms, 0489ms total)
T1FB0 000:608 JLINK_WriteReg(R2, 0x00000001)  returns 0x00 (0000ms, 0489ms total)
T1FB0 000:608 JLINK_WriteReg(R3, 0x00000000)  returns 0x00 (0000ms, 0489ms total)
T1FB0 000:608 JLINK_WriteReg(R4, 0x00000000)  returns 0x00 (0000ms, 0489ms total)
T1FB0 000:608 JLINK_WriteReg(R5, 0x00000000)  returns 0x00 (0000ms, 0489ms total)
T1FB0 000:608 JLINK_WriteReg(R6, 0x00000000)  returns 0x00 (0000ms, 0489ms total)
T1FB0 000:608 JLINK_WriteReg(R7, 0x00000000)  returns 0x00 (0000ms, 0489ms total)
T1FB0 000:608 JLINK_WriteReg(R8, 0x00000000)  returns 0x00 (0000ms, 0489ms total)
T1FB0 000:608 JLINK_WriteReg(R9, 0x20000160)  returns 0x00 (0000ms, 0489ms total)
T1FB0 000:608 JLINK_WriteReg(R10, 0x00000000)  returns 0x00 (0000ms, 0489ms total)
T1FB0 000:608 JLINK_WriteReg(R11, 0x00000000)  returns 0x00 (0001ms, 0490ms total)
T1FB0 000:609 JLINK_WriteReg(R12, 0x00000000)  returns 0x00 (0000ms, 0490ms total)
T1FB0 000:609 JLINK_WriteReg(R13, 0x20000800)  returns 0x00 (0000ms, 0490ms total)
T1FB0 000:609 JLINK_WriteReg(R14, 0x20000001)  returns 0x00 (0000ms, 0490ms total)
T1FB0 000:609 JLINK_WriteReg(R15, 0x2000007C)  returns 0x00 (0000ms, 0490ms total)
T1FB0 000:609 JLINK_WriteReg(XPSR, 0x01000000)  returns 0x00 (0000ms, 0490ms total)
T1FB0 000:609 JLINK_WriteReg(MSP, 0x20000800)  returns 0x00 (0000ms, 0490ms total)
T1FB0 000:609 JLINK_WriteReg(PSP, 0x20000800)  returns 0x00 (0000ms, 0490ms total)
T1FB0 000:609 JLINK_WriteReg(CFBP, 0x00000000)  returns 0x00 (0000ms, 0490ms total)
T1FB0 000:609 JLINK_SetBPEx(Addr = 0x20000000, Type = 0xFFFFFFF2)  returns 0x00000002 (0000ms, 0490ms total)
T1FB0 000:609 JLINK_Go() (0002ms, 0492ms total)
T1FB0 000:611 JLINK_IsHalted()  returns FALSE (0001ms, 0493ms total)
T1FB0 000:747 JLINK_IsHalted() -- CPU_ReadMem(2 bytes @ 0x20000000)  returns TRUE (0006ms, 0498ms total)
T1FB0 000:753 JLINK_ReadReg(R15)  returns 0x20000000 (0000ms, 0492ms total)
T1FB0 000:753 JLINK_ClrBPEx(BPHandle = 0x00000002)  returns 0x00 (0000ms, 0492ms total)
T1FB0 000:753 JLINK_ReadReg(R0)  returns 0x00000000 (0000ms, 0492ms total)
T1FB0 000:803 JLINK_WriteReg(R0, 0x00000001)  returns 0x00 (0000ms, 0492ms total)
T1FB0 000:803 JLINK_WriteReg(R1, 0x007A1200)  returns 0x00 (0000ms, 0492ms total)
T1FB0 000:803 JLINK_WriteReg(R2, 0x00000001)  returns 0x00 (0000ms, 0492ms total)
T1FB0 000:803 JLINK_WriteReg(R3, 0x00000000)  returns 0x00 (0000ms, 0492ms total)
T1FB0 000:803 JLINK_WriteReg(R4, 0x00000000)  returns 0x00 (0000ms, 0492ms total)
T1FB0 000:803 JLINK_WriteReg(R5, 0x00000000)  returns 0x00 (0000ms, 0492ms total)
T1FB0 000:803 JLINK_WriteReg(R6, 0x00000000)  returns 0x00 (0000ms, 0492ms total)
T1FB0 000:803 JLINK_WriteReg(R7, 0x00000000)  returns 0x00 (0000ms, 0492ms total)
T1FB0 000:803 JLINK_WriteReg(R8, 0x00000000)  returns 0x00 (0000ms, 0492ms total)
T1FB0 000:803 JLINK_WriteReg(R9, 0x20000160)  returns 0x00 (0000ms, 0492ms total)
T1FB0 000:803 JLINK_WriteReg(R10, 0x00000000)  returns 0x00 (0000ms, 0492ms total)
T1FB0 000:803 JLINK_WriteReg(R11, 0x00000000)  returns 0x00 (0000ms, 0492ms total)
T1FB0 000:803 JLINK_WriteReg(R12, 0x00000000)  returns 0x00 (0000ms, 0492ms total)
T1FB0 000:803 JLINK_WriteReg(R13, 0x20000800)  returns 0x00 (0000ms, 0492ms total)
T1FB0 000:803 JLINK_WriteReg(R14, 0x20000001)  returns 0x00 (0000ms, 0492ms total)
T1FB0 000:803 JLINK_WriteReg(R15, 0x2000006A)  returns 0x00 (0000ms, 0492ms total)
T1FB0 000:803 JLINK_WriteReg(XPSR, 0x01000000)  returns 0x00 (0000ms, 0492ms total)
T1FB0 000:803 JLINK_WriteReg(MSP, 0x20000800)  returns 0x00 (0000ms, 0492ms total)
T1FB0 000:803 JLINK_WriteReg(PSP, 0x20000800)  returns 0x00 (0000ms, 0492ms total)
T1FB0 000:803 JLINK_WriteReg(CFBP, 0x00000000)  returns 0x00 (0000ms, 0492ms total)
T1FB0 000:803 JLINK_SetBPEx(Addr = 0x20000000, Type = 0xFFFFFFF2)  returns 0x00000003 (0000ms, 0492ms total)
T1FB0 000:803 JLINK_Go() (0002ms, 0494ms total)
T1FB0 000:805 JLINK_IsHalted() -- CPU_ReadMem(2 bytes @ 0x20000000)  returns TRUE (0007ms, 0501ms total)
T1FB0 000:812 JLINK_ReadReg(R15)  returns 0x20000000 (0000ms, 0494ms total)
T1FB0 000:812 JLINK_ClrBPEx(BPHandle = 0x00000003)  returns 0x00 (0000ms, 0494ms total)
T1FB0 000:812 JLINK_ReadReg(R0)  returns 0x00000000 (0000ms, 0494ms total)
T1FB0 000:819 JLINK_WriteMem(0x20000000, 0x0164 Bytes, ...) -- Data:  00 BE 0A E0 0D 78 2D 06 68 40 08 24 40 00 00 D3 ... -- CPU_WriteMem(356 bytes @ 0x20000000)  returns 0x164 (0004ms, 0498ms total)
T1FB0 000:823 JLINK_WriteReg(R0, 0x08000000)  returns 0x00 (0000ms, 0498ms total)
T1FB0 000:823 JLINK_WriteReg(R1, 0x007A1200)  returns 0x00 (0000ms, 0498ms total)
T1FB0 000:823 JLINK_WriteReg(R2, 0x00000002)  returns 0x00 (0000ms, 0498ms total)
T1FB0 000:823 JLINK_WriteReg(R3, 0x00000000)  returns 0x00 (0000ms, 0498ms total)
T1FB0 000:823 JLINK_WriteReg(R4, 0x00000000)  returns 0x00 (0000ms, 0498ms total)
T1FB0 000:823 JLINK_WriteReg(R5, 0x00000000)  returns 0x00 (0000ms, 0498ms total)
T1FB0 000:823 JLINK_WriteReg(R6, 0x00000000)  returns 0x00 (0000ms, 0498ms total)
T1FB0 000:823 JLINK_WriteReg(R7, 0x00000000)  returns 0x00 (0000ms, 0498ms total)
T1FB0 000:823 JLINK_WriteReg(R8, 0x00000000)  returns 0x00 (0000ms, 0498ms total)
T1FB0 000:823 JLINK_WriteReg(R9, 0x20000160)  returns 0x00 (0000ms, 0498ms total)
T1FB0 000:823 JLINK_WriteReg(R10, 0x00000000)  returns 0x00 (0000ms, 0498ms total)
T1FB0 000:823 JLINK_WriteReg(R11, 0x00000000)  returns 0x00 (0000ms, 0498ms total)
T1FB0 000:823 JLINK_WriteReg(R12, 0x00000000)  returns 0x00 (0000ms, 0498ms total)
T1FB0 000:823 JLINK_WriteReg(R13, 0x20000800)  returns 0x00 (0000ms, 0498ms total)
T1FB0 000:823 JLINK_WriteReg(R14, 0x20000001)  returns 0x00 (0001ms, 0499ms total)
T1FB0 000:824 JLINK_WriteReg(R15, 0x20000038)  returns 0x00 (0000ms, 0499ms total)
T1FB0 000:824 JLINK_WriteReg(XPSR, 0x01000000)  returns 0x00 (0000ms, 0499ms total)
T1FB0 000:824 JLINK_WriteReg(MSP, 0x20000800)  returns 0x00 (0000ms, 0499ms total)
T1FB0 000:824 JLINK_WriteReg(PSP, 0x20000800)  returns 0x00 (0000ms, 0499ms total)
T1FB0 000:824 JLINK_WriteReg(CFBP, 0x00000000)  returns 0x00 (0000ms, 0499ms total)
T1FB0 000:824 JLINK_SetBPEx(Addr = 0x20000000, Type = 0xFFFFFFF2) -- CPU_ReadMem(2 bytes @ 0x20000000)  returns 0x00000004 (0001ms, 0500ms total)
T1FB0 000:825 JLINK_Go() -- CPU_WriteMem(2 bytes @ 0x20000000) (0004ms, 0504ms total)
T1FB0 000:829 JLINK_IsHalted() -- CPU_ReadMem(2 bytes @ 0x20000000)  returns TRUE (0007ms, 0511ms total)
T1FB0 000:836 JLINK_ReadReg(R15)  returns 0x20000000 (0000ms, 0504ms total)
T1FB0 000:836 JLINK_ClrBPEx(BPHandle = 0x00000004)  returns 0x00 (0000ms, 0504ms total)
T1FB0 000:836 JLINK_ReadReg(R0)  returns 0x00000000 (0000ms, 0504ms total)
T1FB0 000:836 JLINK_WriteMem(0x20000164, 0x0400 Bytes, ...) -- Data:  18 95 00 20 45 01 00 08 31 09 00 08 8B 07 00 08 ... -- CPU_WriteMem(1024 bytes @ 0x20000164)  returns 0x400 (0007ms, 0511ms total)
T1FB0 000:843 JLINK_WriteReg(R0, 0x08000000)  returns 0x00 (0000ms, 0511ms total)
T1FB0 000:843 JLINK_WriteReg(R1, 0x00000400)  returns 0x00 (0000ms, 0511ms total)
T1FB0 000:843 JLINK_WriteReg(R2, 0x20000164)  returns 0x00 (0000ms, 0511ms total)
T1FB0 000:843 JLINK_WriteReg(R3, 0x00000000)  returns 0x00 (0000ms, 0511ms total)
T1FB0 000:843 JLINK_WriteReg(R4, 0x00000000)  returns 0x00 (0000ms, 0511ms total)
T1FB0 000:843 JLINK_WriteReg(R5, 0x00000000)  returns 0x00 (0000ms, 0511ms total)
T1FB0 000:843 JLINK_WriteReg(R6, 0x00000000)  returns 0x00 (0000ms, 0511ms total)
T1FB0 000:843 JLINK_WriteReg(R7, 0x00000000)  returns 0x00 (0000ms, 0511ms total)
T1FB0 000:843 JLINK_WriteReg(R8, 0x00000000)  returns 0x00 (0000ms, 0511ms total)
T1FB0 000:843 JLINK_WriteReg(R9, 0x20000160)  returns 0x00 (0000ms, 0511ms total)
T1FB0 000:843 JLINK_WriteReg(R10, 0x00000000)  returns 0x00 (0000ms, 0511ms total)
T1FB0 000:843 JLINK_WriteReg(R11, 0x00000000)  returns 0x00 (0000ms, 0511ms total)
T1FB0 000:843 JLINK_WriteReg(R12, 0x00000000)  returns 0x00 (0000ms, 0511ms total)
T1FB0 000:843 JLINK_WriteReg(R13, 0x20000800)  returns 0x00 (0000ms, 0511ms total)
T1FB0 000:843 JLINK_WriteReg(R14, 0x20000001)  returns 0x00 (0001ms, 0512ms total)
T1FB0 000:844 JLINK_WriteReg(R15, 0x200000F4)  returns 0x00 (0000ms, 0512ms total)
T1FB0 000:844 JLINK_WriteReg(XPSR, 0x01000000)  returns 0x00 (0000ms, 0512ms total)
T1FB0 000:844 JLINK_WriteReg(MSP, 0x20000800)  returns 0x00 (0000ms, 0512ms total)
T1FB0 000:844 JLINK_WriteReg(PSP, 0x20000800)  returns 0x00 (0000ms, 0512ms total)
T1FB0 000:844 JLINK_WriteReg(CFBP, 0x00000000)  returns 0x00 (0000ms, 0512ms total)
T1FB0 000:844 JLINK_SetBPEx(Addr = 0x20000000, Type = 0xFFFFFFF2)  returns 0x00000005 (0000ms, 0512ms total)
T1FB0 000:844 JLINK_Go() (0002ms, 0514ms total)
T1FB0 000:846 JLINK_IsHalted()  returns FALSE (0001ms, 0515ms total)
T1FB0 000:948 JLINK_IsHalted() -- CPU_ReadMem(2 bytes @ 0x20000000)  returns TRUE (0006ms, 0520ms total)
T1FB0 000:954 JLINK_ReadReg(R15)  returns 0x20000000 (0000ms, 0514ms total)
T1FB0 000:954 JLINK_ClrBPEx(BPHandle = 0x00000005)  returns 0x00 (0000ms, 0514ms total)
T1FB0 000:954 JLINK_ReadReg(R0)  returns 0x00000000 (0000ms, 0514ms total)
T1FB0 000:954 JLINK_WriteMem(0x20000164, 0x0400 Bytes, ...) -- Data:  42 F0 01 02 02 60 04 E0 02 68 4F F6 FE 73 1A 40 ... -- CPU_WriteMem(1024 bytes @ 0x20000164)  returns 0x400 (0007ms, 0521ms total)
T1FB0 000:961 JLINK_WriteReg(R0, 0x08000400)  returns 0x00 (0000ms, 0521ms total)
T1FB0 000:961 JLINK_WriteReg(R1, 0x00000400)  returns 0x00 (0000ms, 0521ms total)
T1FB0 000:961 JLINK_WriteReg(R2, 0x20000164)  returns 0x00 (0000ms, 0521ms total)
T1FB0 000:961 JLINK_WriteReg(R3, 0x00000000)  returns 0x00 (0000ms, 0521ms total)
T1FB0 000:961 JLINK_WriteReg(R4, 0x00000000)  returns 0x00 (0000ms, 0521ms total)
T1FB0 000:961 JLINK_WriteReg(R5, 0x00000000)  returns 0x00 (0000ms, 0521ms total)
T1FB0 000:961 JLINK_WriteReg(R6, 0x00000000)  returns 0x00 (0000ms, 0521ms total)
T1FB0 000:961 JLINK_WriteReg(R7, 0x00000000)  returns 0x00 (0000ms, 0521ms total)
T1FB0 000:961 JLINK_WriteReg(R8, 0x00000000)  returns 0x00 (0000ms, 0521ms total)
T1FB0 000:961 JLINK_WriteReg(R9, 0x20000160)  returns 0x00 (0000ms, 0521ms total)
T1FB0 000:961 JLINK_WriteReg(R10, 0x00000000)  returns 0x00 (0000ms, 0521ms total)
T1FB0 000:961 JLINK_WriteReg(R11, 0x00000000)  returns 0x00 (0000ms, 0521ms total)
T1FB0 000:961 JLINK_WriteReg(R12, 0x00000000)  returns 0x00 (0000ms, 0521ms total)
T1FB0 000:961 JLINK_WriteReg(R13, 0x20000800)  returns 0x00 (0000ms, 0521ms total)
T1FB0 000:961 JLINK_WriteReg(R14, 0x20000001)  returns 0x00 (0000ms, 0521ms total)
T1FB0 000:961 JLINK_WriteReg(R15, 0x200000F4)  returns 0x00 (0000ms, 0521ms total)
T1FB0 000:961 JLINK_WriteReg(XPSR, 0x01000000)  returns 0x00 (0000ms, 0521ms total)
T1FB0 000:961 JLINK_WriteReg(MSP, 0x20000800)  returns 0x00 (0000ms, 0521ms total)
T1FB0 000:961 JLINK_WriteReg(PSP, 0x20000800)  returns 0x00 (0000ms, 0521ms total)
T1FB0 000:961 JLINK_WriteReg(CFBP, 0x00000000)  returns 0x00 (0000ms, 0521ms total)
T1FB0 000:961 JLINK_SetBPEx(Addr = 0x20000000, Type = 0xFFFFFFF2)  returns 0x00000006 (0000ms, 0521ms total)
T1FB0 000:961 JLINK_Go() (0003ms, 0524ms total)
T1FB0 000:964 JLINK_IsHalted()  returns FALSE (0001ms, 0525ms total)
T1FB0 001:047 JLINK_IsHalted() -- CPU_ReadMem(2 bytes @ 0x20000000)  returns TRUE (0007ms, 0531ms total)
T1FB0 001:054 JLINK_ReadReg(R15)  returns 0x20000000 (0000ms, 0524ms total)
T1FB0 001:054 JLINK_ClrBPEx(BPHandle = 0x00000006)  returns 0x00 (0000ms, 0524ms total)
T1FB0 001:054 JLINK_ReadReg(R0)  returns 0x00000000 (0000ms, 0524ms total)
T1FB0 001:054 JLINK_WriteMem(0x20000164, 0x0400 Bytes, ...) -- Data:  00 90 00 98 0D 28 02 D0 10 25 28 46 EB E7 40 F2 ... -- CPU_WriteMem(1024 bytes @ 0x20000164)  returns 0x400 (0007ms, 0531ms total)
T1FB0 001:061 JLINK_WriteReg(R0, 0x08000800)  returns 0x00 (0000ms, 0531ms total)
T1FB0 001:061 JLINK_WriteReg(R1, 0x00000400)  returns 0x00 (0000ms, 0531ms total)
T1FB0 001:061 JLINK_WriteReg(R2, 0x20000164)  returns 0x00 (0000ms, 0531ms total)
T1FB0 001:061 JLINK_WriteReg(R3, 0x00000000)  returns 0x00 (0000ms, 0531ms total)
T1FB0 001:061 JLINK_WriteReg(R4, 0x00000000)  returns 0x00 (0000ms, 0531ms total)
T1FB0 001:061 JLINK_WriteReg(R5, 0x00000000)  returns 0x00 (0000ms, 0531ms total)
T1FB0 001:061 JLINK_WriteReg(R6, 0x00000000)  returns 0x00 (0000ms, 0531ms total)
T1FB0 001:061 JLINK_WriteReg(R7, 0x00000000)  returns 0x00 (0000ms, 0531ms total)
T1FB0 001:061 JLINK_WriteReg(R8, 0x00000000)  returns 0x00 (0000ms, 0531ms total)
T1FB0 001:061 JLINK_WriteReg(R9, 0x20000160)  returns 0x00 (0000ms, 0531ms total)
T1FB0 001:061 JLINK_WriteReg(R10, 0x00000000)  returns 0x00 (0000ms, 0531ms total)
T1FB0 001:061 JLINK_WriteReg(R11, 0x00000000)  returns 0x00 (0000ms, 0531ms total)
T1FB0 001:061 JLINK_WriteReg(R12, 0x00000000)  returns 0x00 (0000ms, 0531ms total)
T1FB0 001:061 JLINK_WriteReg(R13, 0x20000800)  returns 0x00 (0000ms, 0531ms total)
T1FB0 001:061 JLINK_WriteReg(R14, 0x20000001)  returns 0x00 (0000ms, 0531ms total)
T1FB0 001:061 JLINK_WriteReg(R15, 0x200000F4)  returns 0x00 (0000ms, 0531ms total)
T1FB0 001:061 JLINK_WriteReg(XPSR, 0x01000000)  returns 0x00 (0000ms, 0531ms total)
T1FB0 001:061 JLINK_WriteReg(MSP, 0x20000800)  returns 0x00 (0000ms, 0531ms total)
T1FB0 001:061 JLINK_WriteReg(PSP, 0x20000800)  returns 0x00 (0000ms, 0531ms total)
T1FB0 001:061 JLINK_WriteReg(CFBP, 0x00000000)  returns 0x00 (0000ms, 0531ms total)
T1FB0 001:061 JLINK_SetBPEx(Addr = 0x20000000, Type = 0xFFFFFFF2)  returns 0x00000007 (0000ms, 0531ms total)
T1FB0 001:061 JLINK_Go() (0003ms, 0534ms total)
T1FB0 001:064 JLINK_IsHalted()  returns FALSE (0001ms, 0535ms total)
T1FB0 001:092 JLINK_IsHalted()  returns FALSE (0001ms, 0535ms total)
T1FB0 001:222 JLINK_IsHalted() -- CPU_ReadMem(2 bytes @ 0x20000000)  returns TRUE (0006ms, 0540ms total)
T1FB0 001:228 JLINK_ReadReg(R15)  returns 0x20000000 (0000ms, 0534ms total)
T1FB0 001:228 JLINK_ClrBPEx(BPHandle = 0x00000007)  returns 0x00 (0000ms, 0534ms total)
T1FB0 001:228 JLINK_ReadReg(R0)  returns 0x00000000 (0000ms, 0534ms total)
T1FB0 001:228 JLINK_WriteMem(0x20000164, 0x0400 Bytes, ...) -- Data:  00 20 C8 60 4F F4 80 60 08 61 08 46 00 F0 E2 F8 ... -- CPU_WriteMem(1024 bytes @ 0x20000164)  returns 0x400 (0007ms, 0541ms total)
T1FB0 001:235 JLINK_WriteReg(R0, 0x08000C00)  returns 0x00 (0000ms, 0541ms total)
T1FB0 001:235 JLINK_WriteReg(R1, 0x00000400)  returns 0x00 (0000ms, 0541ms total)
T1FB0 001:235 JLINK_WriteReg(R2, 0x20000164)  returns 0x00 (0000ms, 0541ms total)
T1FB0 001:235 JLINK_WriteReg(R3, 0x00000000)  returns 0x00 (0000ms, 0541ms total)
T1FB0 001:235 JLINK_WriteReg(R4, 0x00000000)  returns 0x00 (0000ms, 0541ms total)
T1FB0 001:235 JLINK_WriteReg(R5, 0x00000000)  returns 0x00 (0000ms, 0541ms total)
T1FB0 001:235 JLINK_WriteReg(R6, 0x00000000)  returns 0x00 (0000ms, 0541ms total)
T1FB0 001:235 JLINK_WriteReg(R7, 0x00000000)  returns 0x00 (0000ms, 0541ms total)
T1FB0 001:235 JLINK_WriteReg(R8, 0x00000000)  returns 0x00 (0000ms, 0541ms total)
T1FB0 001:235 JLINK_WriteReg(R9, 0x20000160)  returns 0x00 (0000ms, 0541ms total)
T1FB0 001:235 JLINK_WriteReg(R10, 0x00000000)  returns 0x00 (0000ms, 0541ms total)
T1FB0 001:235 JLINK_WriteReg(R11, 0x00000000)  returns 0x00 (0000ms, 0541ms total)
T1FB0 001:235 JLINK_WriteReg(R12, 0x00000000)  returns 0x00 (0000ms, 0541ms total)
T1FB0 001:235 JLINK_WriteReg(R13, 0x20000800)  returns 0x00 (0000ms, 0541ms total)
T1FB0 001:235 JLINK_WriteReg(R14, 0x20000001)  returns 0x00 (0000ms, 0541ms total)
T1FB0 001:235 JLINK_WriteReg(R15, 0x200000F4)  returns 0x00 (0000ms, 0541ms total)
T1FB0 001:235 JLINK_WriteReg(XPSR, 0x01000000)  returns 0x00 (0000ms, 0541ms total)
T1FB0 001:235 JLINK_WriteReg(MSP, 0x20000800)  returns 0x00 (0000ms, 0541ms total)
T1FB0 001:235 JLINK_WriteReg(PSP, 0x20000800)  returns 0x00 (0000ms, 0541ms total)
T1FB0 001:235 JLINK_WriteReg(CFBP, 0x00000000)  returns 0x00 (0001ms, 0542ms total)
T1FB0 001:236 JLINK_SetBPEx(Addr = 0x20000000, Type = 0xFFFFFFF2)  returns 0x00000008 (0000ms, 0542ms total)
T1FB0 001:236 JLINK_Go() (0002ms, 0544ms total)
T1FB0 001:238 JLINK_IsHalted()  returns FALSE (0001ms, 0545ms total)
T1FB0 001:355 JLINK_IsHalted() -- CPU_ReadMem(2 bytes @ 0x20000000)  returns TRUE (0006ms, 0550ms total)
T1FB0 001:361 JLINK_ReadReg(R15)  returns 0x20000000 (0000ms, 0544ms total)
T1FB0 001:361 JLINK_ClrBPEx(BPHandle = 0x00000008)  returns 0x00 (0000ms, 0544ms total)
T1FB0 001:361 JLINK_ReadReg(R0)  returns 0x00000000 (0000ms, 0544ms total)
T1FB0 001:361 JLINK_WriteMem(0x20000164, 0x0400 Bytes, ...) -- Data:  DF C4 A3 CA BD C5 E4 D6 C3 00 00 00 D0 90 00 20 ... -- CPU_WriteMem(1024 bytes @ 0x20000164)  returns 0x400 (0007ms, 0551ms total)
T1FB0 001:368 JLINK_WriteReg(R0, 0x08001000)  returns 0x00 (0000ms, 0551ms total)
T1FB0 001:368 JLINK_WriteReg(R1, 0x00000400)  returns 0x00 (0000ms, 0551ms total)
T1FB0 001:368 JLINK_WriteReg(R2, 0x20000164)  returns 0x00 (0000ms, 0551ms total)
T1FB0 001:368 JLINK_WriteReg(R3, 0x00000000)  returns 0x00 (0000ms, 0551ms total)
T1FB0 001:368 JLINK_WriteReg(R4, 0x00000000)  returns 0x00 (0000ms, 0551ms total)
T1FB0 001:368 JLINK_WriteReg(R5, 0x00000000)  returns 0x00 (0000ms, 0551ms total)
T1FB0 001:368 JLINK_WriteReg(R6, 0x00000000)  returns 0x00 (0000ms, 0551ms total)
T1FB0 001:368 JLINK_WriteReg(R7, 0x00000000)  returns 0x00 (0000ms, 0551ms total)
T1FB0 001:368 JLINK_WriteReg(R8, 0x00000000)  returns 0x00 (0000ms, 0551ms total)
T1FB0 001:368 JLINK_WriteReg(R9, 0x20000160)  returns 0x00 (0000ms, 0551ms total)
T1FB0 001:368 JLINK_WriteReg(R10, 0x00000000)  returns 0x00 (0000ms, 0551ms total)
T1FB0 001:368 JLINK_WriteReg(R11, 0x00000000)  returns 0x00 (0000ms, 0551ms total)
T1FB0 001:368 JLINK_WriteReg(R12, 0x00000000)  returns 0x00 (0000ms, 0551ms total)
T1FB0 001:368 JLINK_WriteReg(R13, 0x20000800)  returns 0x00 (0000ms, 0551ms total)
T1FB0 001:368 JLINK_WriteReg(R14, 0x20000001)  returns 0x00 (0000ms, 0551ms total)
T1FB0 001:368 JLINK_WriteReg(R15, 0x200000F4)  returns 0x00 (0000ms, 0551ms total)
T1FB0 001:368 JLINK_WriteReg(XPSR, 0x01000000)  returns 0x00 (0000ms, 0551ms total)
T1FB0 001:369 JLINK_WriteReg(MSP, 0x20000800)  returns 0x00 (0000ms, 0552ms total)
T1FB0 001:369 JLINK_WriteReg(PSP, 0x20000800)  returns 0x00 (0000ms, 0552ms total)
T1FB0 001:369 JLINK_WriteReg(CFBP, 0x00000000)  returns 0x00 (0000ms, 0552ms total)
T1FB0 001:369 JLINK_SetBPEx(Addr = 0x20000000, Type = 0xFFFFFFF2)  returns 0x00000009 (0000ms, 0552ms total)
T1FB0 001:369 JLINK_Go() (0002ms, 0554ms total)
T1FB0 001:371 JLINK_IsHalted()  returns FALSE (0002ms, 0556ms total)
T1FB0 001:490 JLINK_IsHalted() -- CPU_ReadMem(2 bytes @ 0x20000000)  returns TRUE (0006ms, 0560ms total)
T1FB0 001:496 JLINK_ReadReg(R15)  returns 0x20000000 (0000ms, 0554ms total)
T1FB0 001:496 JLINK_ClrBPEx(BPHandle = 0x00000009)  returns 0x00 (0000ms, 0554ms total)
T1FB0 001:496 JLINK_ReadReg(R0)  returns 0x00000000 (0000ms, 0554ms total)
T1FB0 001:496 JLINK_WriteMem(0x20000164, 0x0400 Bytes, ...) -- Data:  8B 79 43 EA 92 13 8B 71 C2 F3 40 13 CB 71 00 23 ... -- CPU_WriteMem(1024 bytes @ 0x20000164)  returns 0x400 (0007ms, 0561ms total)
T1FB0 001:503 JLINK_WriteReg(R0, 0x08001400)  returns 0x00 (0000ms, 0561ms total)
T1FB0 001:503 JLINK_WriteReg(R1, 0x00000400)  returns 0x00 (0000ms, 0561ms total)
T1FB0 001:503 JLINK_WriteReg(R2, 0x20000164)  returns 0x00 (0000ms, 0561ms total)
T1FB0 001:503 JLINK_WriteReg(R3, 0x00000000)  returns 0x00 (0000ms, 0561ms total)
T1FB0 001:503 JLINK_WriteReg(R4, 0x00000000)  returns 0x00 (0000ms, 0561ms total)
T1FB0 001:503 JLINK_WriteReg(R5, 0x00000000)  returns 0x00 (0000ms, 0561ms total)
T1FB0 001:503 JLINK_WriteReg(R6, 0x00000000)  returns 0x00 (0000ms, 0561ms total)
T1FB0 001:503 JLINK_WriteReg(R7, 0x00000000)  returns 0x00 (0000ms, 0561ms total)
T1FB0 001:503 JLINK_WriteReg(R8, 0x00000000)  returns 0x00 (0000ms, 0561ms total)
T1FB0 001:503 JLINK_WriteReg(R9, 0x20000160)  returns 0x00 (0000ms, 0561ms total)
T1FB0 001:503 JLINK_WriteReg(R10, 0x00000000)  returns 0x00 (0000ms, 0561ms total)
T1FB0 001:503 JLINK_WriteReg(R11, 0x00000000)  returns 0x00 (0000ms, 0561ms total)
T1FB0 001:503 JLINK_WriteReg(R12, 0x00000000)  returns 0x00 (0000ms, 0561ms total)
T1FB0 001:503 JLINK_WriteReg(R13, 0x20000800)  returns 0x00 (0000ms, 0561ms total)
T1FB0 001:503 JLINK_WriteReg(R14, 0x20000001)  returns 0x00 (0000ms, 0561ms total)
T1FB0 001:503 JLINK_WriteReg(R15, 0x200000F4)  returns 0x00 (0000ms, 0561ms total)
T1FB0 001:503 JLINK_WriteReg(XPSR, 0x01000000)  returns 0x00 (0000ms, 0561ms total)
T1FB0 001:503 JLINK_WriteReg(MSP, 0x20000800)  returns 0x00 (0000ms, 0561ms total)
T1FB0 001:503 JLINK_WriteReg(PSP, 0x20000800)  returns 0x00 (0001ms, 0562ms total)
T1FB0 001:504 JLINK_WriteReg(CFBP, 0x00000000)  returns 0x00 (0000ms, 0562ms total)
T1FB0 001:504 JLINK_SetBPEx(Addr = 0x20000000, Type = 0xFFFFFFF2)  returns 0x0000000A (0000ms, 0562ms total)
T1FB0 001:504 JLINK_Go() (0002ms, 0564ms total)
T1FB0 001:506 JLINK_IsHalted()  returns FALSE (0001ms, 0565ms total)
T1FB0 001:601 JLINK_IsHalted() -- CPU_ReadMem(2 bytes @ 0x20000000)  returns TRUE (0006ms, 0570ms total)
T1FB0 001:607 JLINK_ReadReg(R15)  returns 0x20000000 (0000ms, 0564ms total)
T1FB0 001:607 JLINK_ClrBPEx(BPHandle = 0x0000000A)  returns 0x00 (0000ms, 0564ms total)
T1FB0 001:607 JLINK_ReadReg(R0)  returns 0x00000000 (0000ms, 0564ms total)
T1FB0 001:607 JLINK_WriteMem(0x20000164, 0x0400 Bytes, ...) -- Data:  FF F7 AA FA 0B 49 48 60 08 20 FF F7 A5 FA 09 49 ... -- CPU_WriteMem(1024 bytes @ 0x20000164)  returns 0x400 (0007ms, 0571ms total)
T1FB0 001:614 JLINK_WriteReg(R0, 0x08001800)  returns 0x00 (0000ms, 0571ms total)
T1FB0 001:614 JLINK_WriteReg(R1, 0x00000400)  returns 0x00 (0000ms, 0571ms total)
T1FB0 001:614 JLINK_WriteReg(R2, 0x20000164)  returns 0x00 (0000ms, 0571ms total)
T1FB0 001:614 JLINK_WriteReg(R3, 0x00000000)  returns 0x00 (0000ms, 0571ms total)
T1FB0 001:614 JLINK_WriteReg(R4, 0x00000000)  returns 0x00 (0000ms, 0571ms total)
T1FB0 001:614 JLINK_WriteReg(R5, 0x00000000)  returns 0x00 (0000ms, 0571ms total)
T1FB0 001:614 JLINK_WriteReg(R6, 0x00000000)  returns 0x00 (0000ms, 0571ms total)
T1FB0 001:614 JLINK_WriteReg(R7, 0x00000000)  returns 0x00 (0000ms, 0571ms total)
T1FB0 001:614 JLINK_WriteReg(R8, 0x00000000)  returns 0x00 (0000ms, 0571ms total)
T1FB0 001:614 JLINK_WriteReg(R9, 0x20000160)  returns 0x00 (0000ms, 0571ms total)
T1FB0 001:614 JLINK_WriteReg(R10, 0x00000000)  returns 0x00 (0000ms, 0571ms total)
T1FB0 001:614 JLINK_WriteReg(R11, 0x00000000)  returns 0x00 (0000ms, 0571ms total)
T1FB0 001:614 JLINK_WriteReg(R12, 0x00000000)  returns 0x00 (0000ms, 0571ms total)
T1FB0 001:614 JLINK_WriteReg(R13, 0x20000800)  returns 0x00 (0000ms, 0571ms total)
T1FB0 001:614 JLINK_WriteReg(R14, 0x20000001)  returns 0x00 (0000ms, 0571ms total)
T1FB0 001:614 JLINK_WriteReg(R15, 0x200000F4)  returns 0x00 (0000ms, 0571ms total)
T1FB0 001:614 JLINK_WriteReg(XPSR, 0x01000000)  returns 0x00 (0000ms, 0571ms total)
T1FB0 001:614 JLINK_WriteReg(MSP, 0x20000800)  returns 0x00 (0000ms, 0571ms total)
T1FB0 001:614 JLINK_WriteReg(PSP, 0x20000800)  returns 0x00 (0000ms, 0571ms total)
T1FB0 001:614 JLINK_WriteReg(CFBP, 0x00000000)  returns 0x00 (0000ms, 0571ms total)
T1FB0 001:614 JLINK_SetBPEx(Addr = 0x20000000, Type = 0xFFFFFFF2)  returns 0x0000000B (0000ms, 0571ms total)
T1FB0 001:614 JLINK_Go() (0003ms, 0574ms total)
T1FB0 001:617 JLINK_IsHalted()  returns FALSE (0001ms, 0575ms total)
T1FB0 001:682 JLINK_IsHalted() -- CPU_ReadMem(2 bytes @ 0x20000000)  returns TRUE (0006ms, 0580ms total)
T1FB0 001:688 JLINK_ReadReg(R15)  returns 0x20000000 (0000ms, 0574ms total)
T1FB0 001:688 JLINK_ClrBPEx(BPHandle = 0x0000000B)  returns 0x00 (0000ms, 0574ms total)
T1FB0 001:688 JLINK_ReadReg(R0)  returns 0x00000000 (0000ms, 0574ms total)
T1FB0 001:688 JLINK_WriteMem(0x20000164, 0x0400 Bytes, ...) -- Data:  10 BD 00 00 34 00 00 20 00 80 01 40 38 00 00 20 ... -- CPU_WriteMem(1024 bytes @ 0x20000164)  returns 0x400 (0007ms, 0581ms total)
T1FB0 001:695 JLINK_WriteReg(R0, 0x08001C00)  returns 0x00 (0000ms, 0581ms total)
T1FB0 001:695 JLINK_WriteReg(R1, 0x00000400)  returns 0x00 (0000ms, 0581ms total)
T1FB0 001:695 JLINK_WriteReg(R2, 0x20000164)  returns 0x00 (0000ms, 0581ms total)
T1FB0 001:695 JLINK_WriteReg(R3, 0x00000000)  returns 0x00 (0000ms, 0581ms total)
T1FB0 001:695 JLINK_WriteReg(R4, 0x00000000)  returns 0x00 (0000ms, 0581ms total)
T1FB0 001:695 JLINK_WriteReg(R5, 0x00000000)  returns 0x00 (0000ms, 0581ms total)
T1FB0 001:695 JLINK_WriteReg(R6, 0x00000000)  returns 0x00 (0000ms, 0581ms total)
T1FB0 001:695 JLINK_WriteReg(R7, 0x00000000)  returns 0x00 (0000ms, 0581ms total)
T1FB0 001:695 JLINK_WriteReg(R8, 0x00000000)  returns 0x00 (0000ms, 0581ms total)
T1FB0 001:695 JLINK_WriteReg(R9, 0x20000160)  returns 0x00 (0000ms, 0581ms total)
T1FB0 001:695 JLINK_WriteReg(R10, 0x00000000)  returns 0x00 (0000ms, 0581ms total)
T1FB0 001:695 JLINK_WriteReg(R11, 0x00000000)  returns 0x00 (0000ms, 0581ms total)
T1FB0 001:695 JLINK_WriteReg(R12, 0x00000000)  returns 0x00 (0000ms, 0581ms total)
T1FB0 001:695 JLINK_WriteReg(R13, 0x20000800)  returns 0x00 (0000ms, 0581ms total)
T1FB0 001:695 JLINK_WriteReg(R14, 0x20000001)  returns 0x00 (0000ms, 0581ms total)
T1FB0 001:695 JLINK_WriteReg(R15, 0x200000F4)  returns 0x00 (0000ms, 0581ms total)
T1FB0 001:695 JLINK_WriteReg(XPSR, 0x01000000)  returns 0x00 (0000ms, 0581ms total)
T1FB0 001:695 JLINK_WriteReg(MSP, 0x20000800)  returns 0x00 (0000ms, 0581ms total)
T1FB0 001:695 JLINK_WriteReg(PSP, 0x20000800)  returns 0x00 (0000ms, 0581ms total)
T1FB0 001:695 JLINK_WriteReg(CFBP, 0x00000000)  returns 0x00 (0000ms, 0581ms total)
T1FB0 001:695 JLINK_SetBPEx(Addr = 0x20000000, Type = 0xFFFFFFF2)  returns 0x0000000C (0000ms, 0581ms total)
T1FB0 001:695 JLINK_Go() (0003ms, 0584ms total)
T1FB0 001:698 JLINK_IsHalted()  returns FALSE (0001ms, 0585ms total)
T1FB0 001:704 JLINK_IsHalted()  returns FALSE (0001ms, 0585ms total)
T1FB0 001:706 JLINK_IsHalted()  returns FALSE (0001ms, 0585ms total)
T1FB0 001:708 JLINK_IsHalted()  returns FALSE (0001ms, 0585ms total)
T1FB0 001:714 JLINK_IsHalted()  returns FALSE (0001ms, 0585ms total)
T1FB0 001:716 JLINK_IsHalted()  returns FALSE (0001ms, 0585ms total)
T1FB0 001:718 JLINK_IsHalted()  returns FALSE (0001ms, 0585ms total)
T1FB0 001:729 JLINK_IsHalted() -- CPU_ReadMem(2 bytes @ 0x20000000)  returns TRUE (0006ms, 0590ms total)
T1FB0 001:735 JLINK_ReadReg(R15)  returns 0x20000000 (0000ms, 0584ms total)
T1FB0 001:735 JLINK_ClrBPEx(BPHandle = 0x0000000C)  returns 0x00 (0000ms, 0584ms total)
T1FB0 001:735 JLINK_ReadReg(R0)  returns 0x00000000 (0000ms, 0584ms total)
T1FB0 001:735 JLINK_WriteMem(0x20000164, 0x0400 Bytes, ...) -- Data:  48 60 40 20 88 60 00 20 C8 60 4F F4 80 60 08 61 ... -- CPU_WriteMem(1024 bytes @ 0x20000164)  returns 0x400 (0007ms, 0591ms total)
T1FB0 001:742 JLINK_WriteReg(R0, 0x08002000)  returns 0x00 (0000ms, 0591ms total)
T1FB0 001:742 JLINK_WriteReg(R1, 0x00000400)  returns 0x00 (0000ms, 0591ms total)
T1FB0 001:742 JLINK_WriteReg(R2, 0x20000164)  returns 0x00 (0000ms, 0591ms total)
T1FB0 001:742 JLINK_WriteReg(R3, 0x00000000)  returns 0x00 (0000ms, 0591ms total)
T1FB0 001:742 JLINK_WriteReg(R4, 0x00000000)  returns 0x00 (0000ms, 0591ms total)
T1FB0 001:742 JLINK_WriteReg(R5, 0x00000000)  returns 0x00 (0000ms, 0591ms total)
T1FB0 001:742 JLINK_WriteReg(R6, 0x00000000)  returns 0x00 (0000ms, 0591ms total)
T1FB0 001:742 JLINK_WriteReg(R7, 0x00000000)  returns 0x00 (0000ms, 0591ms total)
T1FB0 001:742 JLINK_WriteReg(R8, 0x00000000)  returns 0x00 (0000ms, 0591ms total)
T1FB0 001:742 JLINK_WriteReg(R9, 0x20000160)  returns 0x00 (0000ms, 0591ms total)
T1FB0 001:742 JLINK_WriteReg(R10, 0x00000000)  returns 0x00 (0000ms, 0591ms total)
T1FB0 001:742 JLINK_WriteReg(R11, 0x00000000)  returns 0x00 (0000ms, 0591ms total)
T1FB0 001:742 JLINK_WriteReg(R12, 0x00000000)  returns 0x00 (0000ms, 0591ms total)
T1FB0 001:742 JLINK_WriteReg(R13, 0x20000800)  returns 0x00 (0000ms, 0591ms total)
T1FB0 001:742 JLINK_WriteReg(R14, 0x20000001)  returns 0x00 (0000ms, 0591ms total)
T1FB0 001:742 JLINK_WriteReg(R15, 0x200000F4)  returns 0x00 (0000ms, 0591ms total)
T1FB0 001:742 JLINK_WriteReg(XPSR, 0x01000000)  returns 0x00 (0000ms, 0591ms total)
T1FB0 001:742 JLINK_WriteReg(MSP, 0x20000800)  returns 0x00 (0000ms, 0591ms total)
T1FB0 001:742 JLINK_WriteReg(PSP, 0x20000800)  returns 0x00 (0000ms, 0591ms total)
T1FB0 001:742 JLINK_WriteReg(CFBP, 0x00000000)  returns 0x00 (0000ms, 0591ms total)
T1FB0 001:742 JLINK_SetBPEx(Addr = 0x20000000, Type = 0xFFFFFFF2)  returns 0x0000000D (0000ms, 0591ms total)
T1FB0 001:742 JLINK_Go() (0003ms, 0594ms total)
T1FB0 001:745 JLINK_IsHalted()  returns FALSE (0001ms, 0595ms total)
T1FB0 001:781 JLINK_IsHalted() -- CPU_ReadMem(2 bytes @ 0x20000000)  returns TRUE (0006ms, 0600ms total)
T1FB0 001:787 JLINK_ReadReg(R15)  returns 0x20000000 (0000ms, 0594ms total)
T1FB0 001:787 JLINK_ClrBPEx(BPHandle = 0x0000000D)  returns 0x00 (0000ms, 0594ms total)
T1FB0 001:787 JLINK_ReadReg(R0)  returns 0x00000000 (0000ms, 0594ms total)
T1FB0 001:787 JLINK_WriteMem(0x20000164, 0x0400 Bytes, ...) -- Data:  AC 8A 4F F6 FF 40 04 40 B0 89 04 43 AC 82 01 A8 ... -- CPU_WriteMem(1024 bytes @ 0x20000164)  returns 0x400 (0007ms, 0601ms total)
T1FB0 001:794 JLINK_WriteReg(R0, 0x08002400)  returns 0x00 (0000ms, 0601ms total)
T1FB0 001:794 JLINK_WriteReg(R1, 0x00000400)  returns 0x00 (0000ms, 0601ms total)
T1FB0 001:794 JLINK_WriteReg(R2, 0x20000164)  returns 0x00 (0000ms, 0601ms total)
T1FB0 001:794 JLINK_WriteReg(R3, 0x00000000)  returns 0x00 (0000ms, 0601ms total)
T1FB0 001:794 JLINK_WriteReg(R4, 0x00000000)  returns 0x00 (0000ms, 0601ms total)
T1FB0 001:794 JLINK_WriteReg(R5, 0x00000000)  returns 0x00 (0000ms, 0601ms total)
T1FB0 001:794 JLINK_WriteReg(R6, 0x00000000)  returns 0x00 (0000ms, 0601ms total)
T1FB0 001:794 JLINK_WriteReg(R7, 0x00000000)  returns 0x00 (0000ms, 0601ms total)
T1FB0 001:794 JLINK_WriteReg(R8, 0x00000000)  returns 0x00 (0000ms, 0601ms total)
T1FB0 001:794 JLINK_WriteReg(R9, 0x20000160)  returns 0x00 (0000ms, 0601ms total)
T1FB0 001:794 JLINK_WriteReg(R10, 0x00000000)  returns 0x00 (0000ms, 0601ms total)
T1FB0 001:794 JLINK_WriteReg(R11, 0x00000000)  returns 0x00 (0000ms, 0601ms total)
T1FB0 001:794 JLINK_WriteReg(R12, 0x00000000)  returns 0x00 (0000ms, 0601ms total)
T1FB0 001:794 JLINK_WriteReg(R13, 0x20000800)  returns 0x00 (0000ms, 0601ms total)
T1FB0 001:794 JLINK_WriteReg(R14, 0x20000001)  returns 0x00 (0000ms, 0601ms total)
T1FB0 001:794 JLINK_WriteReg(R15, 0x200000F4)  returns 0x00 (0000ms, 0601ms total)
T1FB0 001:794 JLINK_WriteReg(XPSR, 0x01000000)  returns 0x00 (0000ms, 0601ms total)
T1FB0 001:794 JLINK_WriteReg(MSP, 0x20000800)  returns 0x00 (0000ms, 0601ms total)
T1FB0 001:794 JLINK_WriteReg(PSP, 0x20000800)  returns 0x00 (0000ms, 0601ms total)
T1FB0 001:794 JLINK_WriteReg(CFBP, 0x00000000)  returns 0x00 (0000ms, 0601ms total)
T1FB0 001:794 JLINK_SetBPEx(Addr = 0x20000000, Type = 0xFFFFFFF2)  returns 0x0000000E (0000ms, 0601ms total)
T1FB0 001:794 JLINK_Go() (0003ms, 0604ms total)
T1FB0 001:797 JLINK_IsHalted()  returns FALSE (0001ms, 0605ms total)
T1FB0 001:804 JLINK_IsHalted()  returns FALSE (0001ms, 0605ms total)
T1FB0 001:806 JLINK_IsHalted()  returns FALSE (0001ms, 0605ms total)
T1FB0 001:808 JLINK_IsHalted()  returns FALSE (0001ms, 0605ms total)
T1FB0 001:810 JLINK_IsHalted()  returns FALSE (0001ms, 0605ms total)
T1FB0 001:812 JLINK_IsHalted()  returns FALSE (0001ms, 0605ms total)
T1FB0 001:820 JLINK_IsHalted()  returns FALSE (0001ms, 0605ms total)
T1FB0 001:822 JLINK_IsHalted()  returns FALSE (0001ms, 0605ms total)
T1FB0 001:824 JLINK_IsHalted()  returns FALSE (0001ms, 0605ms total)
T1FB0 001:826 JLINK_IsHalted()  returns FALSE (0001ms, 0605ms total)
T1FB0 001:828 JLINK_IsHalted() -- CPU_ReadMem(2 bytes @ 0x20000000)  returns TRUE (0006ms, 0610ms total)
T1FB0 001:834 JLINK_ReadReg(R15)  returns 0x20000000 (0000ms, 0604ms total)
T1FB0 001:834 JLINK_ClrBPEx(BPHandle = 0x0000000E)  returns 0x00 (0000ms, 0604ms total)
T1FB0 001:834 JLINK_ReadReg(R0)  returns 0x00000000 (0000ms, 0604ms total)
T1FB0 001:834 JLINK_WriteMem(0x20000164, 0x0400 Bytes, ...) -- Data:  AB BD F8 D0 D0 B5 A5 BF E9 B6 C1 D0 B4 B2 E2 CA ... -- CPU_WriteMem(1024 bytes @ 0x20000164)  returns 0x400 (0007ms, 0611ms total)
T1FB0 001:841 JLINK_WriteReg(R0, 0x08002800)  returns 0x00 (0000ms, 0611ms total)
T1FB0 001:841 JLINK_WriteReg(R1, 0x00000094)  returns 0x00 (0000ms, 0611ms total)
T1FB0 001:841 JLINK_WriteReg(R2, 0x20000164)  returns 0x00 (0000ms, 0611ms total)
T1FB0 001:841 JLINK_WriteReg(R3, 0x00000000)  returns 0x00 (0000ms, 0611ms total)
T1FB0 001:841 JLINK_WriteReg(R4, 0x00000000)  returns 0x00 (0000ms, 0611ms total)
T1FB0 001:841 JLINK_WriteReg(R5, 0x00000000)  returns 0x00 (0000ms, 0611ms total)
T1FB0 001:841 JLINK_WriteReg(R6, 0x00000000)  returns 0x00 (0000ms, 0611ms total)
T1FB0 001:841 JLINK_WriteReg(R7, 0x00000000)  returns 0x00 (0000ms, 0611ms total)
T1FB0 001:841 JLINK_WriteReg(R8, 0x00000000)  returns 0x00 (0000ms, 0611ms total)
T1FB0 001:841 JLINK_WriteReg(R9, 0x20000160)  returns 0x00 (0000ms, 0611ms total)
T1FB0 001:841 JLINK_WriteReg(R10, 0x00000000)  returns 0x00 (0000ms, 0611ms total)
T1FB0 001:841 JLINK_WriteReg(R11, 0x00000000)  returns 0x00 (0000ms, 0611ms total)
T1FB0 001:841 JLINK_WriteReg(R12, 0x00000000)  returns 0x00 (0000ms, 0611ms total)
T1FB0 001:841 JLINK_WriteReg(R13, 0x20000800)  returns 0x00 (0000ms, 0611ms total)
T1FB0 001:841 JLINK_WriteReg(R14, 0x20000001)  returns 0x00 (0000ms, 0611ms total)
T1FB0 001:841 JLINK_WriteReg(R15, 0x200000F4)  returns 0x00 (0000ms, 0611ms total)
T1FB0 001:841 JLINK_WriteReg(XPSR, 0x01000000)  returns 0x00 (0000ms, 0611ms total)
T1FB0 001:841 JLINK_WriteReg(MSP, 0x20000800)  returns 0x00 (0000ms, 0611ms total)
T1FB0 001:841 JLINK_WriteReg(PSP, 0x20000800)  returns 0x00 (0000ms, 0611ms total)
T1FB0 001:841 JLINK_WriteReg(CFBP, 0x00000000)  returns 0x00 (0000ms, 0611ms total)
T1FB0 001:841 JLINK_SetBPEx(Addr = 0x20000000, Type = 0xFFFFFFF2)  returns 0x0000000F (0000ms, 0611ms total)
T1FB0 001:841 JLINK_Go() (0003ms, 0614ms total)
T1FB0 001:844 JLINK_IsHalted()  returns FALSE (0001ms, 0615ms total)
T1FB0 001:853 JLINK_IsHalted() -- CPU_ReadMem(2 bytes @ 0x20000000)  returns TRUE (0006ms, 0620ms total)
T1FB0 001:859 JLINK_ReadReg(R15)  returns 0x20000000 (0000ms, 0614ms total)
T1FB0 001:859 JLINK_ClrBPEx(BPHandle = 0x0000000F)  returns 0x00 (0000ms, 0614ms total)
T1FB0 001:859 JLINK_ReadReg(R0)  returns 0x00000000 (0000ms, 0614ms total)
T1FB0 001:859 JLINK_WriteReg(R0, 0x00000002)  returns 0x00 (0000ms, 0614ms total)
T1FB0 001:859 JLINK_WriteReg(R1, 0x00000094)  returns 0x00 (0000ms, 0614ms total)
T1FB0 001:859 JLINK_WriteReg(R2, 0x20000164)  returns 0x00 (0000ms, 0614ms total)
T1FB0 001:859 JLINK_WriteReg(R3, 0x00000000)  returns 0x00 (0000ms, 0614ms total)
T1FB0 001:859 JLINK_WriteReg(R4, 0x00000000)  returns 0x00 (0000ms, 0614ms total)
T1FB0 001:859 JLINK_WriteReg(R5, 0x00000000)  returns 0x00 (0000ms, 0614ms total)
T1FB0 001:859 JLINK_WriteReg(R6, 0x00000000)  returns 0x00 (0000ms, 0614ms total)
T1FB0 001:859 JLINK_WriteReg(R7, 0x00000000)  returns 0x00 (0000ms, 0614ms total)
T1FB0 001:859 JLINK_WriteReg(R8, 0x00000000)  returns 0x00 (0000ms, 0614ms total)
T1FB0 001:859 JLINK_WriteReg(R9, 0x20000160)  returns 0x00 (0000ms, 0614ms total)
T1FB0 001:859 JLINK_WriteReg(R10, 0x00000000)  returns 0x00 (0000ms, 0614ms total)
T1FB0 001:859 JLINK_WriteReg(R11, 0x00000000)  returns 0x00 (0000ms, 0614ms total)
T1FB0 001:859 JLINK_WriteReg(R12, 0x00000000)  returns 0x00 (0000ms, 0614ms total)
T1FB0 001:859 JLINK_WriteReg(R13, 0x20000800)  returns 0x00 (0000ms, 0614ms total)
T1FB0 001:859 JLINK_WriteReg(R14, 0x20000001)  returns 0x00 (0000ms, 0614ms total)
T1FB0 001:859 JLINK_WriteReg(R15, 0x2000006A)  returns 0x00 (0000ms, 0614ms total)
T1FB0 001:859 JLINK_WriteReg(XPSR, 0x01000000)  returns 0x00 (0000ms, 0614ms total)
T1FB0 001:859 JLINK_WriteReg(MSP, 0x20000800)  returns 0x00 (0000ms, 0614ms total)
T1FB0 001:859 JLINK_WriteReg(PSP, 0x20000800)  returns 0x00 (0000ms, 0614ms total)
T1FB0 001:859 JLINK_WriteReg(CFBP, 0x00000000)  returns 0x00 (0000ms, 0614ms total)
T1FB0 001:859 JLINK_SetBPEx(Addr = 0x20000000, Type = 0xFFFFFFF2)  returns 0x00000010 (0000ms, 0614ms total)
T1FB0 001:859 JLINK_Go() (0004ms, 0618ms total)
T1FB0 001:863 JLINK_IsHalted() -- CPU_ReadMem(2 bytes @ 0x20000000)  returns TRUE (0006ms, 0624ms total)
T1FB0 001:869 JLINK_ReadReg(R15)  returns 0x20000000 (0000ms, 0618ms total)
T1FB0 001:869 JLINK_ClrBPEx(BPHandle = 0x00000010)  returns 0x00 (0000ms, 0618ms total)
T1FB0 001:869 JLINK_ReadReg(R0)  returns 0x00000000 (0000ms, 0618ms total)
T1FB0 001:922 JLINK_WriteMem(0x20000000, 0x0164 Bytes, ...) -- Data:  00 BE 0A E0 0D 78 2D 06 68 40 08 24 40 00 00 D3 ... -- CPU_WriteMem(356 bytes @ 0x20000000)  returns 0x164 (0004ms, 0622ms total)
T1FB0 001:926 JLINK_WriteReg(R0, 0x08000000)  returns 0x00 (0000ms, 0622ms total)
T1FB0 001:926 JLINK_WriteReg(R1, 0x007A1200)  returns 0x00 (0000ms, 0622ms total)
T1FB0 001:926 JLINK_WriteReg(R2, 0x00000003)  returns 0x00 (0000ms, 0622ms total)
T1FB0 001:926 JLINK_WriteReg(R3, 0x00000000)  returns 0x00 (0000ms, 0622ms total)
T1FB0 001:926 JLINK_WriteReg(R4, 0x00000000)  returns 0x00 (0000ms, 0622ms total)
T1FB0 001:926 JLINK_WriteReg(R5, 0x00000000)  returns 0x00 (0000ms, 0622ms total)
T1FB0 001:926 JLINK_WriteReg(R6, 0x00000000)  returns 0x00 (0000ms, 0622ms total)
T1FB0 001:926 JLINK_WriteReg(R7, 0x00000000)  returns 0x00 (0000ms, 0622ms total)
T1FB0 001:926 JLINK_WriteReg(R8, 0x00000000)  returns 0x00 (0000ms, 0622ms total)
T1FB0 001:926 JLINK_WriteReg(R9, 0x20000160)  returns 0x00 (0000ms, 0622ms total)
T1FB0 001:926 JLINK_WriteReg(R10, 0x00000000)  returns 0x00 (0000ms, 0622ms total)
T1FB0 001:926 JLINK_WriteReg(R11, 0x00000000)  returns 0x00 (0000ms, 0622ms total)
T1FB0 001:926 JLINK_WriteReg(R12, 0x00000000)  returns 0x00 (0000ms, 0622ms total)
T1FB0 001:926 JLINK_WriteReg(R13, 0x20000800)  returns 0x00 (0000ms, 0622ms total)
T1FB0 001:926 JLINK_WriteReg(R14, 0x20000001)  returns 0x00 (0000ms, 0622ms total)
T1FB0 001:926 JLINK_WriteReg(R15, 0x20000038)  returns 0x00 (0000ms, 0622ms total)
